time,rpm,duty_cycle,v_in,c_in,c_motor,temp_motor,time_ms,amp_hours,amp_hours_charged,motor_wattage,v_out
1741632621.3447008,0.0,0.0,45.0,0.0,0.0,-83.8,14284117.0,0.0,0.0,0.0,0.0
1741632621.3950355,0.0,0.0,45.2,0.0,-1.18,-82.3,14349653.0,0.0,0.0,-0.0,0.0
1741632621.4439275,0.0,0.0,45.1,0.0,-1.25,-80.8,14349653.0,0.0,0.0,-0.0,0.0
1741632621.493995,0.0,0.0,45.2,0.0,-1.19,-80.4,14351475.0,0.0,0.0,-0.0,0.0
1741632621.5438046,0.0,0.0,45.2,0.0,-1.24,-80.2,14416909.0,0.0,0.0,-0.0,0.0
1741632621.6477313,0.0,0.0,44.9,0.0,-1.23,-80.5,14349653.0,0.0,0.0,-0.0,0.0
1741632621.6947806,0.0,0.0,45.1,0.0,-1.42,-81.2,14351373.0,0.0,0.0,-0.0,0.0
1741632621.744246,0.0,0.0,45.2,0.0,-1.3,-80.3,14351526.0,0.0,0.0,-0.0,0.0
1741632621.7938817,0.0,0.0,45.2,0.0,-1.31,-79.6,14284117.0,0.0,0.0,-0.0,0.0
1741632621.8440163,0.0,0.0,45.1,0.0,-1.28,-80.6,14415189.0,0.0,0.0,-0.0,0.0
1741632621.893954,179.28571428571428,0.031,44.9,1.61,18.44,-80.8,14416909.0,0.0,0.0,18.366825396825398,0.9960317460317459
1741632621.9443605,277.57142857142856,0.051,45.0,0.93,10.06,-81.0,14285837.0,0.0,0.0,15.51315873015873,1.542063492063492
1741632621.994374,310.14285714285717,0.06,45.1,-0.12,-5.4,-81.2,14417081.0,0.0,0.0,-9.304285714285715,1.7230158730158731
1741632622.046141,321.42857142857144,0.048,45.0,0.24,8.4,-80.2,14482445.0,0.0,0.0,15.000000000000002,1.7857142857142858
1741632622.0952172,324.14285714285717,0.04,45.5,0.16,7.29,-80.3,14417081.0,0.0,0.0,13.127785714285714,1.8007936507936508
1741632622.1446705,328.42857142857144,0.05,45.0,0.18,7.66,-80.6,14349653.0,0.0,0.0,13.976460317460319,1.8246031746031748
1741632622.1944048,319.57142857142856,0.048,45.2,0.16,8.15,-80.7,14415189.0,0.0,0.0,14.469484126984126,1.7753968253968253
1741632622.2442093,325.2857142857143,0.045,45.3,0.16,7.71,-79.8,14416972.0,0.0,0.0,13.933071428571429,1.8071428571428572
1741632622.2949243,326.14285714285717,0.053,45.0,0.17,7.62,-79.0,14351576.0,0.0,0.0,13.806714285714287,1.8119047619047621
1741632622.3458717,329.2857142857143,0.051,45.1,0.17,7.88,-77.9,14351436.0,0.0,0.0,14.415396825396824,1.8293650793650793
1741632622.4443684,328.2857142857143,0.044,45.2,0.17,7.64,-77.7,14351373.0,0.0,0.0,13.93390476190476,1.8238095238095238
1741632622.4940245,336.42857142857144,0.046,45.1,0.19,7.98,-77.6,14285939.0,0.0,0.0,14.915000000000001,1.869047619047619
1741632622.544882,331.2857142857143,0.053,45.1,0.16,7.76,-77.6,14415189.0,0.0,0.0,14.282095238095238,1.8404761904761904
1741632622.5936213,323.42857142857144,0.045,45.3,0.17,8.04,-77.7,14351612.0,0.0,0.0,14.44647619047619,1.7968253968253969
1741632622.64399,330.0,0.041,45.0,0.18,8.05,-79.2,14351612.0,0.0,0.0,14.758333333333336,1.8333333333333333
1741632622.6941514,207.14285714285714,0.028,45.2,0.28,15.31,-79.5,14417081.0,0.0,0.0,17.618650793650794,1.1507936507936507
1741632622.744153,150.42857142857142,0.0,45.1,0.22,2.76,-80.4,14546261.0,0.0,0.0,2.306571428571428,0.8357142857142856
1741632622.7938292,72.85714285714286,0.0,45.3,0.0,-2.23,-81.1,14480725.0,0.0,0.0,-0.9026190476190478,0.40476190476190477
1741632622.9447143,7.428571428571429,0.0,45.2,0.0,-1.21,-81.9,14482445.0,0.0,0.0,-0.04993650793650794,0.04126984126984127
1741632622.993955,3.4285714285714284,0.0,45.0,0.0,-1.24,-82.5,14415189.0,0.0,0.0,-0.023619047619047616,0.019047619047619046
1741632623.0444446,1.5714285714285714,0.0,45.0,0.0,-1.24,-82.0,14349653.0,0.0,0.0,-0.010825396825396825,0.00873015873015873
1741632623.0946364,0.7142857142857143,0.0,45.0,0.0,-1.24,-81.9,14480725.0,0.0,0.0,-0.004920634920634921,0.003968253968253968
1741632623.1443515,0.2857142857142857,0.0,45.2,0.0,-1.24,-81.9,14548044.0,0.0,0.0,-0.001968253968253968,0.0015873015873015873
1741632623.1939914,0.14285714285714285,0.0,45.1,0.0,-1.22,-84.4,14480725.0,0.0,0.0,-0.0009682539682539682,0.0007936507936507937
1741632623.2444048,0.0,0.0,45.2,0.0,-1.26,-83.3,14351526.0,0.0,0.0,-0.0,0.0
1741632623.2938223,0.0,0.0,45.2,0.0,-1.17,-82.5,14417098.0,0.0,0.0,-0.0,0.0
1741632623.3454037,0.0,0.0,45.1,0.0,-1.26,-82.1,14417098.0,0.0,0.0,-0.0,0.0
1741632623.3941295,0.0,0.0,45.2,0.0,-1.17,-81.9,14351562.0,0.0,0.0,-0.0,0.0
1741632623.4443061,0.0,0.0,45.0,0.0,-1.25,-81.9,14482547.0,0.0,0.0,-0.0,0.0
1741632623.494738,0.0,0.0,45.0,0.0,-1.2,-81.5,14417112.0,0.0,0.0,-0.0,0.0
1741632623.5454865,0.0,0.0,45.0,0.0,-1.24,-81.5,14417081.0,0.0,0.0,-0.0,0.0
1741632623.5943787,0.0,0.0,45.1,0.0,-1.27,-81.4,14351545.0,0.0,0.0,-0.0,0.0
1741632623.6444318,0.0,0.0,45.1,0.0,-1.35,-81.7,14548170.0,0.0,0.0,-0.0,0.0
1741632623.6947827,0.0,0.0,45.0,0.0,-1.15,-82.3,14417081.0,0.0,0.0,-0.0,0.0
1741632623.7442358,0.0,0.0,45.2,0.0,-1.36,-82.1,14286076.0,0.0,0.0,-0.0,0.0
1741632623.7945168,0.0,0.0,45.2,0.0,-1.18,-82.1,14415189.0,0.0,0.0,-0.0,0.0
1741632623.894741,0.0,0.0,45.2,0.0,-1.25,-81.6,14547981.0,0.0,0.0,-0.0,0.0
1741632623.9446228,0.0,0.0,45.1,0.0,-1.21,-81.2,14482508.0,0.0,0.0,-0.0,0.0
1741632623.9938455,0.0,0.0,45.1,0.0,-1.28,-81.0,14417081.0,0.0,0.0,-0.0,0.0
1741632624.0441067,0.0,0.0,45.1,0.0,-1.25,-81.2,14482617.0,0.0,0.0,-0.0,0.0
1741632624.0941262,0.0,0.0,45.1,0.0,-1.26,-81.3,14417098.0,0.0,0.0,-0.0,0.0
1741632624.1442833,0.0,0.0,45.0,0.0,-1.26,-81.6,14351545.0,0.0,0.0,-0.0,0.0
1741632624.1939368,0.0,0.0,45.1,0.0,-1.33,-81.8,14351612.0,0.0,0.0,-0.0,0.0
1741632624.2445261,0.0,0.0,45.1,0.0,-1.27,-81.8,14351562.0,0.0,0.0,-0.0,0.0
1741632624.3442483,0.0,0.0,45.2,0.0,-1.24,-81.5,14548044.0,0.0,0.0,-0.0,0.0
1741632624.3937883,0.0,0.0,45.2,0.0,-1.21,-81.5,14613706.0,0.0,0.0,-0.0,0.0
1741632624.544819,0.0,0.0,45.2,0.0,-1.24,-81.4,14417039.0,0.0,0.0,-0.0,0.0
1741632624.5937934,0.0,0.0,45.1,0.0,-1.26,-81.7,14417112.0,0.0,0.0,-0.0,0.0
1741632624.744346,0.0,0.0,44.8,0.0,-1.22,-82.0,14548170.0,0.0,0.0,-0.0,0.0
1741632624.7937694,0.0,0.0,45.1,0.0,-1.2,-81.9,14417081.0,0.0,0.0,-0.0,0.0
1741632624.8439863,0.0,0.0,45.2,0.0,-1.21,-81.8,14417081.0,0.0,0.0,-0.0,0.0
1741632624.8949873,0.0,0.0,45.0,0.0,-1.19,-81.8,14482617.0,0.0,0.0,-0.0,0.0
1741632624.9443333,0.0,0.0,45.2,0.0,-1.27,-81.8,14548153.0,0.0,0.0,-0.0,0.0
1741632624.993822,0.0,0.0,45.0,0.0,-1.24,-81.6,14548197.0,0.0,0.0,-0.0,0.0
1741632625.0443563,0.0,0.0,45.2,0.0,-1.22,-81.8,14417081.0,0.0,0.0,-0.0,0.0
1741632625.0948112,0.0,0.0,45.1,0.0,-1.23,-81.5,14482617.0,0.0,0.0,-0.0,0.0
1741632625.1445878,0.0,0.0,45.1,0.0,-1.36,-81.9,14482617.0,0.0,0.0,-0.0,0.0
1741632625.1938374,0.0,0.0,45.0,0.0,-1.19,-81.9,14417098.0,0.0,0.0,-0.0,0.0
1741632625.3444674,0.0,0.0,45.0,0.0,-1.25,-82.1,14417158.0,0.0,0.0,-0.0,0.0
1741632625.393679,0.0,0.0,45.2,0.0,-1.21,-82.1,14417081.0,0.0,0.0,-0.0,0.0
1741632625.4445813,0.0,0.0,45.2,0.0,-1.16,-81.9,14482617.0,0.0,0.0,-0.0,0.0
1741632625.5452683,0.0,0.0,45.1,0.0,-1.29,-81.3,14482634.0,0.0,0.0,-0.0,0.0
1741632625.5941107,0.0,0.0,45.1,0.0,-1.24,-81.5,14482617.0,0.0,0.0,-0.0,0.0
1741632625.6448672,0.0,0.0,45.2,0.0,-1.22,-81.9,14482508.0,0.0,0.0,-0.0,0.0
1741632625.74487,0.0,0.0,45.1,0.0,-1.24,-82.1,14417081.0,0.0,0.0,-0.0,0.0
1741632625.7947829,0.0,0.0,45.2,0.0,-1.14,-81.6,14417039.0,0.0,0.0,-0.0,0.0
1741632625.8451536,0.0,0.0,45.0,0.0,-1.22,-81.8,14482648.0,0.0,0.0,-0.0,0.0
1741632625.8950322,0.0,0.0,45.1,0.0,-1.26,-81.7,14482547.0,0.0,0.0,-0.0,0.0
1741632625.9447722,0.0,0.0,45.1,0.0,-1.16,-81.7,14482617.0,0.0,0.0,-0.0,0.0
1741632625.9942386,0.0,0.0,45.0,0.0,-1.25,-81.7,14482508.0,0.0,0.0,-0.0,0.0
1741632626.0444014,0.0,0.0,45.1,0.0,-1.21,-81.8,14417081.0,0.0,0.0,-0.0,0.0
1741632626.0949976,0.0,0.0,45.2,0.0,-1.27,-81.6,14482617.0,0.0,0.0,-0.0,0.0
1741632626.1446044,0.0,0.0,45.2,0.0,-1.26,-81.9,14415189.0,0.0,0.0,-0.0,0.0
1741632626.194113,0.0,0.0,45.2,0.0,-1.31,-81.8,14546261.0,0.0,0.0,-0.0,0.0
1741632626.2946115,0.0,0.0,45.2,0.0,-1.15,-81.9,14613689.0,0.0,0.0,-0.0,0.0
1741632626.3445876,0.0,0.0,45.0,0.0,-1.24,-82.5,14482648.0,0.0,0.0,-0.0,0.0
1741632626.3941429,0.0,0.0,45.1,0.0,-1.31,-82.6,14482634.0,0.0,0.0,-0.0,0.0
1741632626.494463,0.0,0.0,45.3,0.0,-1.23,-82.3,14482508.0,0.0,0.0,-0.0,0.0
1741632626.6438837,0.0,0.0,45.1,0.0,-1.24,-81.6,14482634.0,0.0,0.0,-0.0,0.0
1741632626.6949644,0.0,0.0,45.0,0.0,-1.27,-81.6,14613706.0,0.0,0.0,-0.0,0.0
1741632626.7444568,0.0,0.0,45.0,0.0,-1.21,-81.7,14482634.0,0.0,0.0,-0.0,0.0
1741632626.7939115,0.0,0.0,45.0,0.0,-1.18,-81.5,14613706.0,0.0,0.0,-0.0,0.0
1741632626.9441862,0.0,0.0,45.2,0.0,-1.28,-82.5,14482684.0,0.0,0.0,-0.0,0.0
1741632626.9939935,0.0,0.0,45.2,0.0,-1.21,-81.1,14482684.0,0.0,0.0,-0.0,0.0
1741632627.0447304,0.0,0.0,45.1,0.0,-1.16,-80.1,14482617.0,0.0,0.0,-0.0,0.0
1741632627.09431,0.0,0.0,45.0,0.0,-1.19,-80.0,14482617.0,0.0,0.0,-0.0,0.0
1741632627.1446059,0.0,0.0,45.2,0.0,-1.23,-80.1,14548170.0,0.0,0.0,-0.0,0.0
1741632627.1942608,0.0,0.0,45.2,0.0,-1.33,-80.9,14613706.0,0.0,0.0,-0.0,0.0
1741632627.294459,0.0,0.0,45.2,0.0,-1.37,-81.9,14417081.0,0.0,0.0,-0.0,0.0
1741632627.3441348,0.0,0.0,44.9,0.0,-1.34,-81.6,14417098.0,0.0,0.0,-0.0,0.0
1741632627.3943198,0.0,0.0,45.1,0.0,-1.31,-81.7,14613706.0,0.0,0.0,-0.0,0.0
1741632627.444445,0.0,0.0,45.1,0.0,-1.35,-81.7,14482617.0,0.0,0.0,-0.0,0.0
1741632627.4942505,0.0,0.0,45.1,0.0,-1.28,-80.6,14417098.0,0.0,0.0,-0.0,0.0
1741632627.5438924,0.0,0.0,45.2,0.0,-1.21,-80.1,14417081.0,0.0,0.0,-0.0,0.0
1741632627.5938933,0.0,0.0,45.1,0.0,-1.19,-79.6,14482617.0,0.0,0.0,-0.0,0.0
1741632627.6443312,0.0,0.0,45.2,0.0,-1.3,-80.5,14482598.0,0.0,0.0,-0.0,0.0
1741632627.6948285,0.0,0.0,45.1,0.0,-1.24,-80.0,14482648.0,0.0,0.0,-0.0,0.0
1741632627.7447777,0.0,0.0,45.1,0.0,-1.19,-79.7,14548170.0,0.0,0.0,-0.0,0.0
1741632627.7941334,0.0,0.0,45.2,0.0,-1.16,-79.2,14548170.0,0.0,0.0,-0.0,0.0
1741632627.845352,0.0,0.0,45.0,0.0,-1.27,-79.4,14417098.0,0.0,0.0,-0.0,0.0
1741632627.8949225,0.0,0.0,45.1,0.0,-1.22,-79.1,14482634.0,0.0,0.0,-0.0,0.0
1741632627.9444442,0.0,0.0,44.9,0.0,-1.19,-80.9,14480725.0,0.0,0.0,-0.0,0.0
1741632627.9941158,0.0,0.0,45.1,0.0,-1.25,-81.5,14480725.0,0.0,0.0,-0.0,0.0
1741632628.0441458,0.0,0.0,45.2,0.0,-1.16,-81.8,14417098.0,0.0,0.0,-0.0,0.0
1741632628.0955696,0.0,0.0,45.1,0.0,-1.2,-81.8,14351503.0,0.0,0.0,-0.0,0.0
1741632628.1443436,0.0,0.0,45.0,0.0,-1.19,-80.9,14548134.0,0.0,0.0,-0.0,0.0
1741632628.194176,0.0,0.0,45.1,0.0,-1.3,-80.1,14482634.0,0.0,0.0,-0.0,0.0
1741632628.2949634,0.0,0.0,45.2,0.0,-1.19,-80.0,14417098.0,0.0,0.0,-0.0,0.0
1741632628.3451676,0.0,0.0,45.1,0.0,-1.14,-79.7,14482634.0,0.0,0.0,-0.0,0.0
1741632628.394351,0.0,0.0,45.0,0.0,-1.24,-79.5,14548170.0,0.0,0.0,-0.0,0.0
1741632628.4447885,0.0,0.0,45.0,0.0,-1.22,-79.4,14417039.0,0.0,0.0,-0.0,0.0
1741632628.4945192,0.0,0.0,45.0,0.0,-1.28,-80.5,14548111.0,0.0,0.0,-0.0,0.0
1741632628.5453951,0.0,0.0,45.0,0.0,-1.24,-81.2,14417081.0,0.0,0.0,-0.0,0.0
1741632628.5941775,0.0,0.0,45.1,0.0,-1.17,-81.5,14482617.0,0.0,0.0,-0.0,0.0
1741632628.6442432,0.0,0.0,45.2,0.0,-1.25,-81.8,14417098.0,0.0,0.0,-0.0,0.0
1741632628.7446475,0.0,0.0,45.2,0.0,-1.26,-82.0,14417098.0,0.0,0.0,-0.0,0.0
1741632628.7939603,0.0,0.0,45.0,0.0,-1.33,-81.8,14482598.0,0.0,0.0,-0.0,0.0
1741632628.8471632,0.0,0.0,45.0,0.0,-1.3,-81.6,14548170.0,0.0,0.0,-0.0,0.0
1741632628.8938837,0.0,0.0,45.1,0.0,-1.17,-81.7,14548044.0,0.0,0.0,-0.0,0.0
1741632628.945506,0.0,0.0,45.2,0.0,-1.28,-81.5,14613706.0,0.0,0.0,-0.0,0.0
1741632628.9938803,0.0,0.0,45.0,0.0,-1.27,-81.7,14482617.0,0.0,0.0,-0.0,0.0
1741632629.0439358,0.0,0.0,45.1,0.0,-1.36,-81.4,14679225.0,0.0,0.0,-0.0,0.0
1741632629.3446233,0.0,0.0,45.1,0.0,-1.26,-79.8,14482617.0,0.0,0.0,-0.0,0.0
1741632629.3943489,0.0,0.0,45.1,0.0,-1.29,-79.8,14482617.0,0.0,0.0,-0.0,0.0
1741632629.4443069,0.0,0.0,45.2,0.0,-1.21,-79.9,14482617.0,0.0,0.0,-0.0,0.0
1741632629.5448866,0.0,0.0,45.1,0.0,-1.24,-79.2,14482617.0,0.0,0.0,-0.0,0.0
1741632629.6444929,0.0,0.0,45.1,0.0,-1.23,-79.0,14548197.0,0.0,0.0,-0.0,0.0
1741632629.695044,0.0,0.0,44.9,0.0,-1.25,-79.4,14482598.0,0.0,0.0,-0.0,0.0
1741632629.7940588,0.0,0.0,45.2,0.0,-1.27,-79.7,14482547.0,0.0,0.0,-0.0,0.0
1741632629.8440914,0.0,0.0,45.2,0.0,-1.19,-79.5,14482617.0,0.0,0.0,-0.0,0.0
1741632629.994452,0.0,0.0,45.1,0.0,-1.24,-80.1,14548197.0,0.0,0.0,-0.0,0.0
1741632630.044714,0.0,0.0,45.1,0.0,-1.23,-81.5,14548153.0,0.0,0.0,-0.0,0.0
1741632630.0964968,0.0,0.0,45.2,0.0,-1.35,-82.3,14546261.0,0.0,0.0,-0.0,0.0
1741632630.144255,0.0,0.0,45.2,0.0,-1.31,-82.3,14415189.0,0.0,0.0,-0.0,0.0
1741632630.194724,0.0,0.0,45.1,0.0,-1.25,-81.8,14613689.0,0.0,0.0,-0.0,0.0
1741632630.2442808,0.0,0.0,45.0,0.0,-1.27,-81.5,14548153.0,0.0,0.0,-0.0,0.0
1741632630.2957861,0.0,0.0,45.0,0.0,-1.3,-81.6,14482684.0,0.0,0.0,-0.0,0.0
1741632630.3449397,0.0,0.0,45.1,0.0,-1.25,-81.7,14482617.0,0.0,0.0,-0.0,0.0
1741632630.394369,0.0,0.0,45.1,0.0,-1.31,-80.8,14613689.0,0.0,0.0,-0.0,0.0
1741632630.444861,0.0,0.0,45.1,0.0,-1.27,-81.0,14482634.0,0.0,0.0,-0.0,0.0
1741632630.5443943,0.0,0.0,45.2,0.0,-1.26,-81.6,14548170.0,0.0,0.0,-0.0,0.0
1741632630.5954092,0.0,0.0,45.1,0.0,-1.24,-81.7,14482575.0,0.0,0.0,-0.0,0.0
1741632630.644129,0.0,0.0,45.2,0.0,-1.32,-81.9,14548153.0,0.0,0.0,-0.0,0.0
1741632630.6946673,0.0,0.0,45.1,0.0,-1.21,-82.2,14482634.0,0.0,0.0,-0.0,0.0
1741632630.7441483,0.0,0.0,45.2,0.0,-1.29,-82.0,14417098.0,0.0,0.0,-0.0,0.0
1741632630.7941403,0.0,0.0,45.1,0.0,-1.2,-82.5,14548170.0,0.0,0.0,-0.0,0.0
1741632630.8442852,0.0,0.0,45.2,0.0,-1.24,-82.3,14417081.0,0.0,0.0,-0.0,0.0
1741632630.8941653,0.0,0.0,44.9,0.0,-1.23,-81.4,14613689.0,0.0,0.0,-0.0,0.0
1741632631.0442743,0.0,0.0,45.0,0.0,-1.14,-81.8,14482617.0,0.0,0.0,-0.0,0.0
1741632631.0940943,0.0,0.0,45.2,0.0,-1.22,-80.4,14482648.0,0.0,0.0,-0.0,0.0
1741632631.1448624,0.0,0.0,45.2,0.0,-1.29,-79.8,14613580.0,0.0,0.0,-0.0,0.0
1741632631.1944263,0.0,0.0,45.0,0.0,-1.24,-79.8,14482617.0,0.0,0.0,-0.0,0.0
1741632631.2444813,0.0,0.0,45.2,0.0,-1.21,-79.0,14613517.0,0.0,0.0,-0.0,0.0
1741632631.2972531,0.0,0.0,45.0,0.0,-1.33,-79.2,14482634.0,0.0,0.0,-0.0,0.0
1741632631.344379,0.0,0.0,45.1,0.0,-1.19,-79.5,14613689.0,0.0,0.0,-0.0,0.0
1741632631.394271,0.0,0.0,45.1,0.0,-1.23,-79.6,14415189.0,0.0,0.0,-0.0,0.0
1741632631.4488218,0.0,0.0,45.0,0.0,-1.22,-79.6,14482634.0,0.0,0.0,-0.0,0.0
1741632631.494116,0.0,0.0,45.2,0.0,-1.35,-80.1,14482617.0,0.0,0.0,-0.0,0.0
1741632631.543939,0.0,0.0,45.0,0.0,-1.35,-81.5,14415189.0,0.0,0.0,-0.0,0.0
1741632631.5938258,0.0,0.0,45.1,0.0,-1.28,-81.8,14482617.0,0.0,0.0,-0.0,0.0
1741632631.6439602,0.0,0.0,45.5,0.0,-1.26,-81.8,14480725.0,0.0,0.0,-0.0,0.0
1741632631.6943173,0.0,0.0,45.1,0.0,-1.27,-81.4,14482617.0,0.0,0.0,-0.0,0.0
1741632631.7440443,0.0,0.0,45.0,0.0,-1.46,-81.3,14548153.0,0.0,0.0,-0.0,0.0
1741632631.7939847,0.0,0.0,45.1,0.0,-1.28,-81.1,14548184.0,0.0,0.0,-0.0,0.0
1741632631.9442675,0.0,0.0,45.2,0.0,-1.26,-81.8,14613706.0,0.0,0.0,-0.0,0.0
1741632631.994252,0.0,0.0,45.1,0.0,-1.27,-81.7,14613706.0,0.0,0.0,-0.0,0.0
1741632632.1448574,0.0,0.0,45.1,0.0,-1.35,-82.0,14611797.0,0.0,0.0,-0.0,0.0
1741632632.19409,0.0,0.0,45.0,0.0,-1.19,-82.1,14482617.0,0.0,0.0,-0.0,0.0
1741632632.24516,0.0,0.0,45.1,0.0,-1.28,-82.5,14548170.0,0.0,0.0,-0.0,0.0
1741632632.294331,0.0,0.0,45.2,0.0,-1.25,-82.2,14417098.0,0.0,0.0,-0.0,0.0
1741632632.346052,0.0,0.0,45.1,0.0,-1.27,-82.4,14613619.0,0.0,0.0,-0.0,0.0
1741632632.5444262,0.0,0.0,45.2,0.0,-1.21,-81.3,14548153.0,0.0,0.0,-0.0,0.0
1741632632.5943415,0.0,0.0,45.1,0.0,-1.24,-81.7,14482575.0,0.0,0.0,-0.0,0.0
1741632632.644413,0.0,0.0,45.1,0.0,-1.27,-81.2,14482617.0,0.0,0.0,-0.0,0.0
1741632632.6944842,0.0,0.0,45.1,0.0,-1.29,-80.7,14482634.0,0.0,0.0,-0.0,0.0
1741632632.7447343,0.0,0.0,45.0,0.0,-1.18,-80.4,14482617.0,0.0,0.0,-0.0,0.0
1741632632.7938304,0.0,0.0,45.1,0.0,-1.2,-80.4,14613689.0,0.0,0.0,-0.0,0.0
1741632632.8448248,0.0,0.0,45.2,0.0,-1.27,-80.0,14613706.0,0.0,0.0,-0.0,0.0
1741632632.945965,0.0,0.0,45.0,0.0,-1.21,-80.7,14482634.0,0.0,0.0,-0.0,0.0
1741632632.994091,0.0,0.0,45.2,0.0,-1.31,-80.9,14417098.0,0.0,0.0,-0.0,0.0
1741632633.0954778,0.0,0.0,45.1,0.0,-1.28,-80.8,14482617.0,0.0,0.0,-0.0,0.0
1741632633.1443212,0.0,0.0,45.0,0.0,-1.25,-80.4,14613706.0,0.0,0.0,-0.0,0.0
1741632633.1940148,0.0,0.0,45.1,0.0,-1.32,-80.2,14548170.0,0.0,0.0,-0.0,0.0
1741632633.2944973,0.0,0.0,45.1,0.0,-1.29,-80.5,14417081.0,0.0,0.0,-0.0,0.0
1741632633.344302,0.0,0.0,45.2,0.0,-1.26,-80.9,14548170.0,0.0,0.0,-0.0,0.0
1741632633.3940618,0.0,0.0,45.2,0.0,-1.22,-81.4,14482617.0,0.0,0.0,-0.0,0.0
1741632633.4442225,0.0,0.0,45.1,0.0,-1.21,-80.8,14482617.0,0.0,0.0,-0.0,0.0
1741632633.4951193,0.0,0.0,45.1,0.0,-1.27,-80.2,14613706.0,0.0,0.0,-0.0,0.0
1741632633.5463445,0.0,0.0,45.1,0.0,-1.29,-80.9,14482673.0,0.0,0.0,-0.0,0.0
1741632633.5940876,0.0,0.0,45.1,0.0,-1.3,-81.0,14482617.0,0.0,0.0,-0.0,0.0
1741632633.6448746,0.0,0.0,45.1,0.0,-1.24,-81.7,14482617.0,0.0,0.0,-0.0,0.0
1741632633.6943445,0.0,0.0,45.1,0.0,-1.3,-81.7,14482617.0,0.0,0.0,-0.0,0.0
1741632633.7453105,0.0,0.0,45.0,0.0,-1.27,-81.6,14613706.0,0.0,0.0,-0.0,0.0
1741632633.8445714,0.0,0.0,45.0,0.0,-1.21,-81.8,14548153.0,0.0,0.0,-0.0,0.0
1741632633.9946656,0.0,0.0,45.1,0.0,-1.26,-82.3,14677333.0,0.0,0.0,-0.0,0.0
1741632634.0442402,0.0,0.0,45.0,0.0,-1.28,-83.4,14613706.0,0.0,0.0,-0.0,0.0
1741632634.0950449,0.0,0.0,45.2,0.0,-1.32,-82.9,14548153.0,0.0,0.0,-0.0,0.0
1741632634.1438832,0.0,0.0,45.1,0.0,-1.23,-82.4,14548170.0,0.0,0.0,-0.0,0.0
1741632634.1939178,0.0,0.0,45.2,0.0,-1.26,-82.0,14482648.0,0.0,0.0,-0.0,0.0
1741632634.244999,0.0,0.0,45.2,0.0,-1.22,-81.9,14613580.0,0.0,0.0,-0.0,0.0
1741632634.2945642,0.0,0.0,45.0,0.0,-1.22,-81.7,14417098.0,0.0,0.0,-0.0,0.0
1741632634.3447092,0.0,0.0,45.0,0.0,-1.24,-81.2,14548170.0,0.0,0.0,-0.0,0.0
1741632634.4443967,0.0,0.0,45.2,0.0,-1.21,-80.6,14482694.0,0.0,0.0,-0.0,0.0
1741632634.4944513,0.0,0.0,45.0,0.0,-1.26,-79.6,14482634.0,0.0,0.0,-0.0,0.0
1741632634.5444994,0.0,0.0,45.1,0.0,-1.22,-79.2,14548134.0,0.0,0.0,-0.0,0.0
1741632634.594507,0.0,0.0,45.2,0.0,-1.21,-78.9,14548083.0,0.0,0.0,-0.0,0.0
1741632634.6448846,0.0,0.0,45.0,0.0,-1.22,-79.1,14548153.0,0.0,0.0,-0.0,0.0
1741632634.9446704,0.0,0.0,45.1,0.0,-1.31,-79.9,14613619.0,0.0,0.0,-0.0,0.0
1741632634.9941478,0.0,0.0,45.2,0.0,-1.23,-79.7,14548170.0,0.0,0.0,-0.0,0.0
1741632635.0449917,0.0,0.0,45.0,0.0,-1.24,-79.3,14548153.0,0.0,0.0,-0.0,0.0
1741632635.0947416,0.0,0.0,44.9,0.0,-1.25,-79.3,14613706.0,0.0,0.0,-0.0,0.0
1741632635.1946104,0.0,0.0,44.9,0.0,-1.17,-80.2,14613706.0,0.0,0.0,-0.0,0.0
1741632635.2448196,0.0,0.0,45.0,0.0,-1.18,-80.9,14613706.0,0.0,0.0,-0.0,0.0
1741632635.2947805,0.0,0.0,45.1,0.0,-1.2,-82.0,14548083.0,0.0,0.0,-0.0,0.0
1741632635.345267,0.0,0.0,45.2,0.0,-1.17,-82.2,14548044.0,0.0,0.0,-0.0,0.0
1741632635.3941267,0.0,0.0,45.0,0.0,-1.21,-82.7,14482617.0,0.0,0.0,-0.0,0.0
1741632635.444617,0.0,0.0,45.0,0.0,-1.28,-82.0,14548170.0,0.0,0.0,-0.0,0.0
1741632635.4943376,0.0,0.0,45.2,0.0,-1.27,-81.0,14482617.0,0.0,0.0,-0.0,0.0
1741632635.593858,0.0,0.0,45.2,0.0,-1.26,-80.4,14548170.0,0.0,0.0,-0.0,0.0
1741632635.6442387,0.0,0.0,45.0,0.0,-1.22,-80.2,14548170.0,0.0,0.0,-0.0,0.0
1741632635.695531,0.0,0.0,45.2,0.0,-1.25,-80.4,14482634.0,0.0,0.0,-0.0,0.0
1741632635.7940495,0.0,0.0,44.9,0.0,-1.22,-82.4,14611797.0,0.0,0.0,-0.0,0.0
1741632635.8443036,0.0,0.0,45.2,0.0,-1.21,-82.3,14482617.0,0.0,0.0,-0.0,0.0
1741632635.8941839,0.0,0.0,45.1,0.0,-1.24,-81.8,14548153.0,0.0,0.0,-0.0,0.0
1741632635.9453843,0.0,0.0,45.0,0.0,-1.23,-82.0,14613517.0,0.0,0.0,-0.0,0.0
1741632635.9945352,0.0,0.0,45.1,0.0,-1.33,-82.2,14613756.0,0.0,0.0,-0.0,0.0
1741632636.044091,0.0,0.0,44.9,0.0,-1.25,-81.6,14482617.0,0.0,0.0,-0.0,0.0
1741632636.0944455,0.0,0.0,45.3,0.0,-1.3,-81.9,14613706.0,0.0,0.0,-0.0,0.0
1741632636.1940265,0.0,0.0,45.5,0.0,-1.22,-81.8,14679225.0,0.0,0.0,-0.0,0.0
1741632636.294503,0.0,0.0,45.2,0.0,-1.29,-82.0,14482575.0,0.0,0.0,-0.0,0.0
1741632636.3456633,0.0,0.0,45.2,0.0,-1.3,-81.6,14679242.0,0.0,0.0,-0.0,0.0
1741632636.3944228,0.0,0.0,45.2,0.0,-1.28,-81.2,14613580.0,0.0,0.0,-0.0,0.0
1741632636.445585,0.0,0.0,45.2,0.0,-1.26,-81.4,14482661.0,0.0,0.0,-0.0,0.0
1741632636.593961,0.0,0.0,45.1,0.0,-1.29,-80.7,14482617.0,0.0,0.0,-0.0,0.0
1741632636.6439893,0.0,0.0,45.2,0.0,-1.23,-80.3,14482617.0,0.0,0.0,-0.0,0.0
